!Agilent Technologies,E5071C,MY46101915,A.08.10
!Date: Mon Jan 01 00:47:23 2001
!Data & Calibration Information:
!Freq	S11:NONE(--)	S21:NONE(--)	S12:NONE(--)	S22:NONE(--)
# Hz S dB R 50
100000	-4.604492e-002	-5.612838e-001	-2.000000e+002	0.000000e+000	-2.000000e+002	0.000000e+000	-2.000000e+002	0.000000e+000
42599500	4.617901e-003	-8.204765e+001	-2.000000e+002	0.000000e+000	-2.000000e+002	0.000000e+000	-2.000000e+002	0.000000e+000
85099000	-1.301913e-001	-1.634934e+002	-2.000000e+002	0.000000e+000	-2.000000e+002	0.000000e+000	-2.000000e+002	0.000000e+000
127598500	-1.729534e-001	1.159334e+002	-2.000000e+002	0.000000e+000	-2.000000e+002	0.000000e+000	-2.000000e+002	0.000000e+000
170098000	-1.721985e-001	3.516672e+001	-2.000000e+002	0.000000e+000	-2.000000e+002	0.000000e+000	-2.000000e+002	0.000000e+000
212597500	-1.769581e-001	-4.685474e+001	-2.000000e+002	0.000000e+000	-2.000000e+002	0.000000e+000	-2.000000e+002	0.000000e+000
255097000	-2.374938e-001	-1.295794e+002	-2.000000e+002	0.000000e+000	-2.000000e+002	0.000000e+000	-2.000000e+002	0.000000e+000
297596500	-3.800151e-001	1.504640e+002	-2.000000e+002	0.000000e+000	-2.000000e+002	0.000000e+000	-2.000000e+002	0.000000e+000
340096000	-3.631481e-001	7.116576e+001	-2.000000e+002	0.000000e+000	-2.000000e+002	0.000000e+000	-2.000000e+002	0.000000e+000
382595500	-3.068747e-001	-1.007989e+001	-2.000000e+002	0.000000e+000	-2.000000e+002	0.000000e+000	-2.000000e+002	0.000000e+000
425095000	-4.217176e-001	-9.309767e+001	-2.000000e+002	0.000000e+000	-2.000000e+002	0.000000e+000	-2.000000e+002	0.000000e+000
467594500	-4.624475e-001	-1.748671e+002	-2.000000e+002	0.000000e+000	-2.000000e+002	0.000000e+000	-2.000000e+002	0.000000e+000
510094000	-4.876040e-001	1.053384e+002	-2.000000e+002	0.000000e+000	-2.000000e+002	0.000000e+000	-2.000000e+002	0.000000e+000
552593500	-4.373001e-001	2.488252e+001	-2.000000e+002	0.000000e+000	-2.000000e+002	0.000000e+000	-2.000000e+002	0.000000e+000
595093000	-4.556730e-001	-5.793171e+001	-2.000000e+002	0.000000e+000	-2.000000e+002	0.000000e+000	-2.000000e+002	0.000000e+000
637592500	-4.961902e-001	-1.411491e+002	-2.000000e+002	0.000000e+000	-2.000000e+002	0.000000e+000	-2.000000e+002	0.000000e+000
680092000	-6.024580e-001	1.367961e+002	-2.000000e+002	0.000000e+000	-2.000000e+002	0.000000e+000	-2.000000e+002	0.000000e+000
722591500	-6.676589e-001	5.658450e+001	-2.000000e+002	0.000000e+000	-2.000000e+002	0.000000e+000	-2.000000e+002	0.000000e+000
765091000	-6.383089e-001	-2.512988e+001	-2.000000e+002	0.000000e+000	-2.000000e+002	0.000000e+000	-2.000000e+002	0.000000e+000
807590500	-7.190810e-001	-1.090932e+002	-2.000000e+002	0.000000e+000	-2.000000e+002	0.000000e+000	-2.000000e+002	0.000000e+000
850090000	-8.386497e-001	1.678755e+002	-2.000000e+002	0.000000e+000	-2.000000e+002	0.000000e+000	-2.000000e+002	0.000000e+000
892589500	-9.615147e-001	8.628158e+001	-2.000000e+002	0.000000e+000	-2.000000e+002	0.000000e+000	-2.000000e+002	0.000000e+000
935089000	-1.287458e+000	6.093862e+000	-2.000000e+002	0.000000e+000	-2.000000e+002	0.000000e+000	-2.000000e+002	0.000000e+000
977588500	-1.320438e+000	-7.567331e+001	-2.000000e+002	0.000000e+000	-2.000000e+002	0.000000e+000	-2.000000e+002	0.000000e+000
1020088000	-1.334488e+000	-1.603011e+002	-2.000000e+002	0.000000e+000	-2.000000e+002	0.000000e+000	-2.000000e+002	0.000000e+000
1062587500	-1.467973e+000	1.167821e+002	-2.000000e+002	0.000000e+000	-2.000000e+002	0.000000e+000	-2.000000e+002	0.000000e+000
1105087000	-1.338475e+000	3.508108e+001	-2.000000e+002	0.000000e+000	-2.000000e+002	0.000000e+000	-2.000000e+002	0.000000e+000
1147586500	-1.785687e+000	-5.004730e+001	-2.000000e+002	0.000000e+000	-2.000000e+002	0.000000e+000	-2.000000e+002	0.000000e+000
1190086000	-2.385167e+000	-1.352819e+002	-2.000000e+002	0.000000e+000	-2.000000e+002	0.000000e+000	-2.000000e+002	0.000000e+000
1232585500	-2.459567e+000	1.396297e+002	-2.000000e+002	0.000000e+000	-2.000000e+002	0.000000e+000	-2.000000e+002	0.000000e+000
1275085000	-2.775866e+000	5.690565e+001	-2.000000e+002	0.000000e+000	-2.000000e+002	0.000000e+000	-2.000000e+002	0.000000e+000
1317584500	-3.591650e+000	-2.613416e+001	-2.000000e+002	0.000000e+000	-2.000000e+002	0.000000e+000	-2.000000e+002	0.000000e+000
1360084000	-4.614829e+000	-1.150384e+002	-2.000000e+002	0.000000e+000	-2.000000e+002	0.000000e+000	-2.000000e+002	0.000000e+000
1402583500	-5.378817e+000	1.581719e+002	-2.000000e+002	0.000000e+000	-2.000000e+002	0.000000e+000	-2.000000e+002	0.000000e+000
1445083000	-5.515043e+000	7.654291e+001	-2.000000e+002	0.000000e+000	-2.000000e+002	0.000000e+000	-2.000000e+002	0.000000e+000
1487582500	-7.076657e+000	-9.198349e+000	-2.000000e+002	0.000000e+000	-2.000000e+002	0.000000e+000	-2.000000e+002	0.000000e+000
1530082000	-1.077458e+001	-1.063007e+002	-2.000000e+002	0.000000e+000	-2.000000e+002	0.000000e+000	-2.000000e+002	0.000000e+000
1572581500	-1.298634e+001	1.517227e+002	-2.000000e+002	0.000000e+000	-2.000000e+002	0.000000e+000	-2.000000e+002	0.000000e+000
1615081000	-1.589299e+001	6.402851e+001	-2.000000e+002	0.000000e+000	-2.000000e+002	0.000000e+000	-2.000000e+002	0.000000e+000
1657580500	-2.799494e+001	1.379508e+002	-2.000000e+002	0.000000e+000	-2.000000e+002	0.000000e+000	-2.000000e+002	0.000000e+000
1700080000	-1.361933e+001	7.991301e+001	-2.000000e+002	0.000000e+000	-2.000000e+002	0.000000e+000	-2.000000e+002	0.000000e+000
1742579500	-1.124815e+001	3.853350e+000	-2.000000e+002	0.000000e+000	-2.000000e+002	0.000000e+000	-2.000000e+002	0.000000e+000
1785079000	-1.031534e+001	-9.519598e+001	-2.000000e+002	0.000000e+000	-2.000000e+002	0.000000e+000	-2.000000e+002	0.000000e+000
1827578500	-8.360117e+000	1.651087e+002	-2.000000e+002	0.000000e+000	-2.000000e+002	0.000000e+000	-2.000000e+002	0.000000e+000
1870078000	-6.730091e+000	8.497189e+001	-2.000000e+002	0.000000e+000	-2.000000e+002	0.000000e+000	-2.000000e+002	0.000000e+000
1912577500	-6.498090e+000	9.230936e+000	-2.000000e+002	0.000000e+000	-2.000000e+002	0.000000e+000	-2.000000e+002	0.000000e+000
1955077000	-6.939290e+000	-7.621974e+001	-2.000000e+002	0.000000e+000	-2.000000e+002	0.000000e+000	-2.000000e+002	0.000000e+000
1997576500	-6.433327e+000	-1.661279e+002	-2.000000e+002	0.000000e+000	-2.000000e+002	0.000000e+000	-2.000000e+002	0.000000e+000
2040076000	-5.597233e+000	1.117660e+002	-2.000000e+002	0.000000e+000	-2.000000e+002	0.000000e+000	-2.000000e+002	0.000000e+000
2082575500	-5.153921e+000	3.781459e+001	-2.000000e+002	0.000000e+000	-2.000000e+002	0.000000e+000	-2.000000e+002	0.000000e+000
2125075000	-5.435766e+000	-4.186762e+001	-2.000000e+002	0.000000e+000	-2.000000e+002	0.000000e+000	-2.000000e+002	0.000000e+000
2167574500	-5.402184e+000	-1.292964e+002	-2.000000e+002	0.000000e+000	-2.000000e+002	0.000000e+000	-2.000000e+002	0.000000e+000
2210074000	-4.792446e+000	1.454511e+002	-2.000000e+002	0.000000e+000	-2.000000e+002	0.000000e+000	-2.000000e+002	0.000000e+000
2252573500	-4.358217e+000	6.913618e+001	-2.000000e+002	0.000000e+000	-2.000000e+002	0.000000e+000	-2.000000e+002	0.000000e+000
2295073000	-4.262173e+000	-7.092974e+000	-2.000000e+002	0.000000e+000	-2.000000e+002	0.000000e+000	-2.000000e+002	0.000000e+000
2337572500	-4.398236e+000	-9.095198e+001	-2.000000e+002	0.000000e+000	-2.000000e+002	0.000000e+000	-2.000000e+002	0.000000e+000
2380072000	-4.216347e+000	-1.787006e+002	-2.000000e+002	0.000000e+000	-2.000000e+002	0.000000e+000	-2.000000e+002	0.000000e+000
2422571500	-3.754419e+000	9.999193e+001	-2.000000e+002	0.000000e+000	-2.000000e+002	0.000000e+000	-2.000000e+002	0.000000e+000
2465071000	-3.691349e+000	2.358754e+001	-2.000000e+002	0.000000e+000	-2.000000e+002	0.000000e+000	-2.000000e+002	0.000000e+000
2507570500	-3.978399e+000	-5.583175e+001	-2.000000e+002	0.000000e+000	-2.000000e+002	0.000000e+000	-2.000000e+002	0.000000e+000
2550070000	-4.185265e+000	-1.425413e+002	-2.000000e+002	0.000000e+000	-2.000000e+002	0.000000e+000	-2.000000e+002	0.000000e+000
2592569500	-3.665795e+000	1.331335e+002	-2.000000e+002	0.000000e+000	-2.000000e+002	0.000000e+000	-2.000000e+002	0.000000e+000
2635069000	-3.377729e+000	5.623483e+001	-2.000000e+002	0.000000e+000	-2.000000e+002	0.000000e+000	-2.000000e+002	0.000000e+000
2677568500	-3.556225e+000	-1.883309e+001	-2.000000e+002	0.000000e+000	-2.000000e+002	0.000000e+000	-2.000000e+002	0.000000e+000
2720068000	-3.987811e+000	-1.032893e+002	-2.000000e+002	0.000000e+000	-2.000000e+002	0.000000e+000	-2.000000e+002	0.000000e+000
2762567500	-3.904009e+000	1.680885e+002	-2.000000e+002	0.000000e+000	-2.000000e+002	0.000000e+000	-2.000000e+002	0.000000e+000
2805067000	-3.373814e+000	8.899105e+001	-2.000000e+002	0.000000e+000	-2.000000e+002	0.000000e+000	-2.000000e+002	0.000000e+000
2847566500	-3.281485e+000	1.644412e+001	-2.000000e+002	0.000000e+000	-2.000000e+002	0.000000e+000	-2.000000e+002	0.000000e+000
2890066000	-3.730821e+000	-6.166177e+001	-2.000000e+002	0.000000e+000	-2.000000e+002	0.000000e+000	-2.000000e+002	0.000000e+000
2932565500	-4.025562e+000	-1.506484e+002	-2.000000e+002	0.000000e+000	-2.000000e+002	0.000000e+000	-2.000000e+002	0.000000e+000
2975065000	-3.540740e+000	1.236557e+002	-2.000000e+002	0.000000e+000	-2.000000e+002	0.000000e+000	-2.000000e+002	0.000000e+000
3017564500	-3.102577e+000	4.933012e+001	-2.000000e+002	0.000000e+000	-2.000000e+002	0.000000e+000	-2.000000e+002	0.000000e+000
3060064000	-3.422016e+000	-2.593610e+001	-2.000000e+002	0.000000e+000	-2.000000e+002	0.000000e+000	-2.000000e+002	0.000000e+000
3102563500	-4.032744e+000	-1.122194e+002	-2.000000e+002	0.000000e+000	-2.000000e+002	0.000000e+000	-2.000000e+002	0.000000e+000
3145063000	-3.817441e+000	1.573705e+002	-2.000000e+002	0.000000e+000	-2.000000e+002	0.000000e+000	-2.000000e+002	0.000000e+000
3187562500	-3.284702e+000	7.821198e+001	-2.000000e+002	0.000000e+000	-2.000000e+002	0.000000e+000	-2.000000e+002	0.000000e+000
3230062000	-3.412428e+000	4.779935e+000	-2.000000e+002	0.000000e+000	-2.000000e+002	0.000000e+000	-2.000000e+002	0.000000e+000
3272561500	-4.120290e+000	-7.651057e+001	-2.000000e+002	0.000000e+000	-2.000000e+002	0.000000e+000	-2.000000e+002	0.000000e+000
3315061000	-4.330313e+000	-1.682936e+002	-2.000000e+002	0.000000e+000	-2.000000e+002	0.000000e+000	-2.000000e+002	0.000000e+000
3357560500	-3.910532e+000	1.061462e+002	-2.000000e+002	0.000000e+000	-2.000000e+002	0.000000e+000	-2.000000e+002	0.000000e+000
3400060000	-3.839569e+000	3.131569e+001	-2.000000e+002	0.000000e+000	-2.000000e+002	0.000000e+000	-2.000000e+002	0.000000e+000
3442559500	-4.513772e+000	-4.680863e+001	-2.000000e+002	0.000000e+000	-2.000000e+002	0.000000e+000	-2.000000e+002	0.000000e+000
3485059000	-5.307241e+000	-1.361134e+002	-2.000000e+002	0.000000e+000	-2.000000e+002	0.000000e+000	-2.000000e+002	0.000000e+000
3527558500	-5.155104e+000	1.336536e+002	-2.000000e+002	0.000000e+000	-2.000000e+002	0.000000e+000	-2.000000e+002	0.000000e+000
3570058000	-5.011177e+000	5.458522e+001	-2.000000e+002	0.000000e+000	-2.000000e+002	0.000000e+000	-2.000000e+002	0.000000e+000
3612557500	-5.654850e+000	-2.110345e+001	-2.000000e+002	0.000000e+000	-2.000000e+002	0.000000e+000	-2.000000e+002	0.000000e+000
3655057000	-6.886326e+000	-1.050963e+002	-2.000000e+002	0.000000e+000	-2.000000e+002	0.000000e+000	-2.000000e+002	0.000000e+000
3697556500	-7.488437e+000	1.628497e+002	-2.000000e+002	0.000000e+000	-2.000000e+002	0.000000e+000	-2.000000e+002	0.000000e+000
3740056000	-7.276776e+000	7.965775e+001	-2.000000e+002	0.000000e+000	-2.000000e+002	0.000000e+000	-2.000000e+002	0.000000e+000
3782555500	-7.772164e+000	5.311642e+000	-2.000000e+002	0.000000e+000	-2.000000e+002	0.000000e+000	-2.000000e+002	0.000000e+000
3825055000	-9.519366e+000	-7.343202e+001	-2.000000e+002	0.000000e+000	-2.000000e+002	0.000000e+000	-2.000000e+002	0.000000e+000
3867554500	-1.125848e+001	-1.654279e+002	-2.000000e+002	0.000000e+000	-2.000000e+002	0.000000e+000	-2.000000e+002	0.000000e+000
3910054000	-1.091953e+001	1.069923e+002	-2.000000e+002	0.000000e+000	-2.000000e+002	0.000000e+000	-2.000000e+002	0.000000e+000
3952553500	-1.063673e+001	3.820683e+001	-2.000000e+002	0.000000e+000	-2.000000e+002	0.000000e+000	-2.000000e+002	0.000000e+000
3995053000	-1.237746e+001	-2.454052e+001	-2.000000e+002	0.000000e+000	-2.000000e+002	0.000000e+000	-2.000000e+002	0.000000e+000
4037552500	-1.646442e+001	-9.680328e+001	-2.000000e+002	0.000000e+000	-2.000000e+002	0.000000e+000	-2.000000e+002	0.000000e+000
4080052000	-1.763512e+001	1.586533e+002	-2.000000e+002	0.000000e+000	-2.000000e+002	0.000000e+000	-2.000000e+002	0.000000e+000
4122551500	-1.384607e+001	8.162884e+001	-2.000000e+002	0.000000e+000	-2.000000e+002	0.000000e+000	-2.000000e+002	0.000000e+000
4165051000	-1.215671e+001	2.601135e+001	-2.000000e+002	0.000000e+000	-2.000000e+002	0.000000e+000	-2.000000e+002	0.000000e+000
4207550500	-1.309166e+001	-3.159057e+001	-2.000000e+002	0.000000e+000	-2.000000e+002	0.000000e+000	-2.000000e+002	0.000000e+000
4250050000	-1.646215e+001	-1.151004e+002	-2.000000e+002	0.000000e+000	-2.000000e+002	0.000000e+000	-2.000000e+002	0.000000e+000
4292549500	-1.433617e+001	1.342642e+002	-2.000000e+002	0.000000e+000	-2.000000e+002	0.000000e+000	-2.000000e+002	0.000000e+000
4335049000	-1.056648e+001	6.118443e+001	-2.000000e+002	0.000000e+000	-2.000000e+002	0.000000e+000	-2.000000e+002	0.000000e+000
4377548500	-9.927590e+000	-5.998038e-001	-2.000000e+002	0.000000e+000	-2.000000e+002	0.000000e+000	-2.000000e+002	0.000000e+000
4420048000	-1.210497e+001	-7.647712e+001	-2.000000e+002	0.000000e+000	-2.000000e+002	0.000000e+000	-2.000000e+002	0.000000e+000
4462547500	-1.280724e+001	1.746417e+002	-2.000000e+002	0.000000e+000	-2.000000e+002	0.000000e+000	-2.000000e+002	0.000000e+000
4505047000	-9.535831e+000	8.663460e+001	-2.000000e+002	0.000000e+000	-2.000000e+002	0.000000e+000	-2.000000e+002	0.000000e+000
4547546500	-8.558576e+000	1.843305e+001	-2.000000e+002	0.000000e+000	-2.000000e+002	0.000000e+000	-2.000000e+002	0.000000e+000
4590046000	-1.051343e+001	-5.665313e+001	-2.000000e+002	0.000000e+000	-2.000000e+002	0.000000e+000	-2.000000e+002	0.000000e+000
4632545500	-1.260341e+001	-1.632868e+002	-2.000000e+002	0.000000e+000	-2.000000e+002	0.000000e+000	-2.000000e+002	0.000000e+000
4675045000	-1.008662e+001	1.009553e+002	-2.000000e+002	0.000000e+000	-2.000000e+002	0.000000e+000	-2.000000e+002	0.000000e+000
4717544500	-9.369618e+000	3.194103e+001	-2.000000e+002	0.000000e+000	-2.000000e+002	0.000000e+000	-2.000000e+002	0.000000e+000
4760044000	-1.205614e+001	-3.877484e+001	-2.000000e+002	0.000000e+000	-2.000000e+002	0.000000e+000	-2.000000e+002	0.000000e+000
4802543500	-1.700946e+001	-1.456095e+002	-2.000000e+002	0.000000e+000	-2.000000e+002	0.000000e+000	-2.000000e+002	0.000000e+000
4845043000	-1.514613e+001	1.049443e+002	-2.000000e+002	0.000000e+000	-2.000000e+002	0.000000e+000	-2.000000e+002	0.000000e+000
4887542500	-1.490578e+001	4.272144e+001	-2.000000e+002	0.000000e+000	-2.000000e+002	0.000000e+000	-2.000000e+002	0.000000e+000
4930042000	-1.942466e+001	-1.065161e+000	-2.000000e+002	0.000000e+000	-2.000000e+002	0.000000e+000	-2.000000e+002	0.000000e+000
4972541500	-2.848451e+001	2.769476e+001	-2.000000e+002	0.000000e+000	-2.000000e+002	0.000000e+000	-2.000000e+002	0.000000e+000
5015041000	-2.416449e+001	1.598045e+001	-2.000000e+002	0.000000e+000	-2.000000e+002	0.000000e+000	-2.000000e+002	0.000000e+000
5057540500	-4.736164e+001	-1.384506e+002	-2.000000e+002	0.000000e+000	-2.000000e+002	0.000000e+000	-2.000000e+002	0.000000e+000
5100040000	-1.984423e+001	1.075543e+002	-2.000000e+002	0.000000e+000	-2.000000e+002	0.000000e+000	-2.000000e+002	0.000000e+000
5142539500	-1.461322e+001	5.010567e+001	-2.000000e+002	0.000000e+000	-2.000000e+002	0.000000e+000	-2.000000e+002	0.000000e+000
5185039000	-1.374457e+001	-1.250369e+001	-2.000000e+002	0.000000e+000	-2.000000e+002	0.000000e+000	-2.000000e+002	0.000000e+000
5227538500	-1.546018e+001	-9.296133e+001	-2.000000e+002	0.000000e+000	-2.000000e+002	0.000000e+000	-2.000000e+002	0.000000e+000
5270038000	-1.480918e+001	1.637071e+002	-2.000000e+002	0.000000e+000	-2.000000e+002	0.000000e+000	-2.000000e+002	0.000000e+000
5312537500	-1.141049e+001	8.106958e+001	-2.000000e+002	0.000000e+000	-2.000000e+002	0.000000e+000	-2.000000e+002	0.000000e+000
5355037000	-9.983447e+000	1.117507e+001	-2.000000e+002	0.000000e+000	-2.000000e+002	0.000000e+000	-2.000000e+002	0.000000e+000
5397536500	-1.064999e+001	-6.141962e+001	-2.000000e+002	0.000000e+000	-2.000000e+002	0.000000e+000	-2.000000e+002	0.000000e+000
5440036000	-1.131820e+001	-1.507779e+002	-2.000000e+002	0.000000e+000	-2.000000e+002	0.000000e+000	-2.000000e+002	0.000000e+000
5482535500	-9.514496e+000	1.133472e+002	-2.000000e+002	0.000000e+000	-2.000000e+002	0.000000e+000	-2.000000e+002	0.000000e+000
5525035000	-7.522156e+000	3.935616e+001	-2.000000e+002	0.000000e+000	-2.000000e+002	0.000000e+000	-2.000000e+002	0.000000e+000
5567534500	-6.993545e+000	-3.006287e+001	-2.000000e+002	0.000000e+000	-2.000000e+002	0.000000e+000	-2.000000e+002	0.000000e+000
5610034000	-7.842284e+000	-1.122008e+002	-2.000000e+002	0.000000e+000	-2.000000e+002	0.000000e+000	-2.000000e+002	0.000000e+000
5652533500	-7.666484e+000	1.500764e+002	-2.000000e+002	0.000000e+000	-2.000000e+002	0.000000e+000	-2.000000e+002	0.000000e+000
5695033000	-5.698784e+000	6.504397e+001	-2.000000e+002	0.000000e+000	-2.000000e+002	0.000000e+000	-2.000000e+002	0.000000e+000
5737532500	-4.834625e+000	-4.680822e+000	-2.000000e+002	0.000000e+000	-2.000000e+002	0.000000e+000	-2.000000e+002	0.000000e+000
5780032000	-5.331660e+000	-7.918076e+001	-2.000000e+002	0.000000e+000	-2.000000e+002	0.000000e+000	-2.000000e+002	0.000000e+000
5822531500	-5.962483e+000	-1.742945e+002	-2.000000e+002	0.000000e+000	-2.000000e+002	0.000000e+000	-2.000000e+002	0.000000e+000
5865031000	-4.841344e+000	9.363973e+001	-2.000000e+002	0.000000e+000	-2.000000e+002	0.000000e+000	-2.000000e+002	0.000000e+000
5907530500	-3.769503e+000	2.112691e+001	-2.000000e+002	0.000000e+000	-2.000000e+002	0.000000e+000	-2.000000e+002	0.000000e+000
5950030000	-3.915142e+000	-5.052266e+001	-2.000000e+002	0.000000e+000	-2.000000e+002	0.000000e+000	-2.000000e+002	0.000000e+000
5992529500	-4.827376e+000	-1.390798e+002	-2.000000e+002	0.000000e+000	-2.000000e+002	0.000000e+000	-2.000000e+002	0.000000e+000
6035029000	-4.266421e+000	1.256654e+002	-2.000000e+002	0.000000e+000	-2.000000e+002	0.000000e+000	-2.000000e+002	0.000000e+000
6077528500	-3.204297e+000	4.856356e+001	-2.000000e+002	0.000000e+000	-2.000000e+002	0.000000e+000	-2.000000e+002	0.000000e+000
6120028000	-3.192976e+000	-2.142763e+001	-2.000000e+002	0.000000e+000	-2.000000e+002	0.000000e+000	-2.000000e+002	0.000000e+000
6162527500	-3.990293e+000	-1.029739e+002	-2.000000e+002	0.000000e+000	-2.000000e+002	0.000000e+000	-2.000000e+002	0.000000e+000
6205027000	-3.982239e+000	1.613068e+002	-2.000000e+002	0.000000e+000	-2.000000e+002	0.000000e+000	-2.000000e+002	0.000000e+000
6247526500	-3.108742e+000	7.879290e+001	-2.000000e+002	0.000000e+000	-2.000000e+002	0.000000e+000	-2.000000e+002	0.000000e+000
6290026000	-2.978109e+000	8.840429e+000	-2.000000e+002	0.000000e+000	-2.000000e+002	0.000000e+000	-2.000000e+002	0.000000e+000
6332525500	-3.650447e+000	-6.793816e+001	-2.000000e+002	0.000000e+000	-2.000000e+002	0.000000e+000	-2.000000e+002	0.000000e+000
6375025000	-4.046051e+000	-1.625988e+002	-2.000000e+002	0.000000e+000	-2.000000e+002	0.000000e+000	-2.000000e+002	0.000000e+000
6417524500	-3.316034e+000	1.077103e+002	-2.000000e+002	0.000000e+000	-2.000000e+002	0.000000e+000	-2.000000e+002	0.000000e+000
6460024000	-2.998698e+000	3.562014e+001	-2.000000e+002	0.000000e+000	-2.000000e+002	0.000000e+000	-2.000000e+002	0.000000e+000
6502523500	-3.391802e+000	-3.544124e+001	-2.000000e+002	0.000000e+000	-2.000000e+002	0.000000e+000	-2.000000e+002	0.000000e+000
6545023000	-4.044937e+000	-1.223320e+002	-2.000000e+002	0.000000e+000	-2.000000e+002	0.000000e+000	-2.000000e+002	0.000000e+000
