!Agilent Technologies,E5071C,MY46101915,A.08.10
!Date: Mon Jan 01 00:39:44 2001
!Data & Calibration Information:
!Freq	S11:NONE(--)	S21:NONE(--)	S12:NONE(--)	S22:NONE(--)
# Hz S dB R 50
100000	-4.186849e-002	-6.143093e-001	-2.000000e+002	0.000000e+000	-2.000000e+002	0.000000e+000	-2.000000e+002	0.000000e+000
42599500	3.656790e-003	-8.238403e+001	-2.000000e+002	0.000000e+000	-2.000000e+002	0.000000e+000	-2.000000e+002	0.000000e+000
85099000	-1.510746e-001	-1.638101e+002	-2.000000e+002	0.000000e+000	-2.000000e+002	0.000000e+000	-2.000000e+002	0.000000e+000
127598500	-1.790588e-001	1.152167e+002	-2.000000e+002	0.000000e+000	-2.000000e+002	0.000000e+000	-2.000000e+002	0.000000e+000
170098000	-2.023736e-001	3.370504e+001	-2.000000e+002	0.000000e+000	-2.000000e+002	0.000000e+000	-2.000000e+002	0.000000e+000
212597500	-2.697865e-001	-4.860821e+001	-2.000000e+002	0.000000e+000	-2.000000e+002	0.000000e+000	-2.000000e+002	0.000000e+000
255097000	-4.119979e-001	-1.303353e+002	-2.000000e+002	0.000000e+000	-2.000000e+002	0.000000e+000	-2.000000e+002	0.000000e+000
297596500	-4.032251e-001	1.493576e+002	-2.000000e+002	0.000000e+000	-2.000000e+002	0.000000e+000	-2.000000e+002	0.000000e+000
340096000	-3.695270e-001	6.914616e+001	-2.000000e+002	0.000000e+000	-2.000000e+002	0.000000e+000	-2.000000e+002	0.000000e+000
382595500	-3.658228e-001	-1.262556e+001	-2.000000e+002	0.000000e+000	-2.000000e+002	0.000000e+000	-2.000000e+002	0.000000e+000
425095000	-4.086584e-001	-9.541765e+001	-2.000000e+002	0.000000e+000	-2.000000e+002	0.000000e+000	-2.000000e+002	0.000000e+000
467594500	-4.293474e-001	-1.776434e+002	-2.000000e+002	0.000000e+000	-2.000000e+002	0.000000e+000	-2.000000e+002	0.000000e+000
510094000	-5.507849e-001	1.017020e+002	-2.000000e+002	0.000000e+000	-2.000000e+002	0.000000e+000	-2.000000e+002	0.000000e+000
552593500	-5.333503e-001	2.098369e+001	-2.000000e+002	0.000000e+000	-2.000000e+002	0.000000e+000	-2.000000e+002	0.000000e+000
595093000	-4.951068e-001	-6.213959e+001	-2.000000e+002	0.000000e+000	-2.000000e+002	0.000000e+000	-2.000000e+002	0.000000e+000
637592500	-6.194343e-001	-1.455561e+002	-2.000000e+002	0.000000e+000	-2.000000e+002	0.000000e+000	-2.000000e+002	0.000000e+000
680092000	-7.153530e-001	1.322296e+002	-2.000000e+002	0.000000e+000	-2.000000e+002	0.000000e+000	-2.000000e+002	0.000000e+000
722591500	-8.858215e-001	5.115553e+001	-2.000000e+002	0.000000e+000	-2.000000e+002	0.000000e+000	-2.000000e+002	0.000000e+000
765091000	-8.374585e-001	-3.107222e+001	-2.000000e+002	0.000000e+000	-2.000000e+002	0.000000e+000	-2.000000e+002	0.000000e+000
807590500	-1.030260e+000	-1.151541e+002	-2.000000e+002	0.000000e+000	-2.000000e+002	0.000000e+000	-2.000000e+002	0.000000e+000
850090000	-1.122102e+000	1.634461e+002	-2.000000e+002	0.000000e+000	-2.000000e+002	0.000000e+000	-2.000000e+002	0.000000e+000
892589500	-1.147539e+000	8.055116e+001	-2.000000e+002	0.000000e+000	-2.000000e+002	0.000000e+000	-2.000000e+002	0.000000e+000
935089000	-1.285881e+000	-1.024150e+000	-2.000000e+002	0.000000e+000	-2.000000e+002	0.000000e+000	-2.000000e+002	0.000000e+000
977588500	-1.353274e+000	-8.506949e+001	-2.000000e+002	0.000000e+000	-2.000000e+002	0.000000e+000	-2.000000e+002	0.000000e+000
1020088000	-1.590840e+000	-1.698987e+002	-2.000000e+002	0.000000e+000	-2.000000e+002	0.000000e+000	-2.000000e+002	0.000000e+000
1062587500	-1.800032e+000	1.058150e+002	-2.000000e+002	0.000000e+000	-2.000000e+002	0.000000e+000	-2.000000e+002	0.000000e+000
1105087000	-2.020462e+000	2.147835e+001	-2.000000e+002	0.000000e+000	-2.000000e+002	0.000000e+000	-2.000000e+002	0.000000e+000
1147586500	-2.720835e+000	-6.433380e+001	-2.000000e+002	0.000000e+000	-2.000000e+002	0.000000e+000	-2.000000e+002	0.000000e+000
1190086000	-3.494804e+000	-1.490912e+002	-2.000000e+002	0.000000e+000	-2.000000e+002	0.000000e+000	-2.000000e+002	0.000000e+000
1232585500	-4.047589e+000	1.288556e+002	-2.000000e+002	0.000000e+000	-2.000000e+002	0.000000e+000	-2.000000e+002	0.000000e+000
1275085000	-4.324794e+000	4.332306e+001	-2.000000e+002	0.000000e+000	-2.000000e+002	0.000000e+000	-2.000000e+002	0.000000e+000
1317584500	-5.557951e+000	-3.844110e+001	-2.000000e+002	0.000000e+000	-2.000000e+002	0.000000e+000	-2.000000e+002	0.000000e+000
1360084000	-6.359976e+000	-1.268015e+002	-2.000000e+002	0.000000e+000	-2.000000e+002	0.000000e+000	-2.000000e+002	0.000000e+000
1402583500	-6.752467e+000	1.456290e+002	-2.000000e+002	0.000000e+000	-2.000000e+002	0.000000e+000	-2.000000e+002	0.000000e+000
1445083000	-7.985151e+000	6.085404e+001	-2.000000e+002	0.000000e+000	-2.000000e+002	0.000000e+000	-2.000000e+002	0.000000e+000
1487582500	-1.017840e+001	-2.782303e+001	-2.000000e+002	0.000000e+000	-2.000000e+002	0.000000e+000	-2.000000e+002	0.000000e+000
1530082000	-1.455131e+001	-1.268882e+002	-2.000000e+002	0.000000e+000	-2.000000e+002	0.000000e+000	-2.000000e+002	0.000000e+000
1572581500	-1.649189e+001	1.360169e+002	-2.000000e+002	0.000000e+000	-2.000000e+002	0.000000e+000	-2.000000e+002	0.000000e+000
1615081000	-1.902908e+001	5.129023e+001	-2.000000e+002	0.000000e+000	-2.000000e+002	0.000000e+000	-2.000000e+002	0.000000e+000
1657580500	-3.216821e+001	-1.695662e+002	-2.000000e+002	0.000000e+000	-2.000000e+002	0.000000e+000	-2.000000e+002	0.000000e+000
1700080000	-1.720827e+001	1.019554e+002	-2.000000e+002	0.000000e+000	-2.000000e+002	0.000000e+000	-2.000000e+002	0.000000e+000
1742579500	-1.265498e+001	2.845526e+001	-2.000000e+002	0.000000e+000	-2.000000e+002	0.000000e+000	-2.000000e+002	0.000000e+000
1785079000	-1.148975e+001	-6.542243e+001	-2.000000e+002	0.000000e+000	-2.000000e+002	0.000000e+000	-2.000000e+002	0.000000e+000
1827578500	-9.259856e+000	-1.655478e+002	-2.000000e+002	0.000000e+000	-2.000000e+002	0.000000e+000	-2.000000e+002	0.000000e+000
1870078000	-6.584915e+000	1.073988e+002	-2.000000e+002	0.000000e+000	-2.000000e+002	0.000000e+000	-2.000000e+002	0.000000e+000
1912577500	-5.507155e+000	2.278809e+001	-2.000000e+002	0.000000e+000	-2.000000e+002	0.000000e+000	-2.000000e+002	0.000000e+000
1955077000	-5.574098e+000	-6.479560e+001	-2.000000e+002	0.000000e+000	-2.000000e+002	0.000000e+000	-2.000000e+002	0.000000e+000
1997576500	-5.192658e+000	-1.551738e+002	-2.000000e+002	0.000000e+000	-2.000000e+002	0.000000e+000	-2.000000e+002	0.000000e+000
2040076000	-4.810907e+000	1.185455e+002	-2.000000e+002	0.000000e+000	-2.000000e+002	0.000000e+000	-2.000000e+002	0.000000e+000
2082575500	-4.533166e+000	4.024273e+001	-2.000000e+002	0.000000e+000	-2.000000e+002	0.000000e+000	-2.000000e+002	0.000000e+000
2125075000	-4.463847e+000	-4.149333e+001	-2.000000e+002	0.000000e+000	-2.000000e+002	0.000000e+000	-2.000000e+002	0.000000e+000
2167574500	-4.544712e+000	-1.279378e+002	-2.000000e+002	0.000000e+000	-2.000000e+002	0.000000e+000	-2.000000e+002	0.000000e+000
2210074000	-4.176127e+000	1.469690e+002	-2.000000e+002	0.000000e+000	-2.000000e+002	0.000000e+000	-2.000000e+002	0.000000e+000
2252573500	-3.933987e+000	6.732689e+001	-2.000000e+002	0.000000e+000	-2.000000e+002	0.000000e+000	-2.000000e+002	0.000000e+000
2295073000	-4.002527e+000	-1.249006e+001	-2.000000e+002	0.000000e+000	-2.000000e+002	0.000000e+000	-2.000000e+002	0.000000e+000
2337572500	-4.186294e+000	-9.644695e+001	-2.000000e+002	0.000000e+000	-2.000000e+002	0.000000e+000	-2.000000e+002	0.000000e+000
2380072000	-4.350873e+000	1.783718e+002	-2.000000e+002	0.000000e+000	-2.000000e+002	0.000000e+000	-2.000000e+002	0.000000e+000
2422571500	-4.255134e+000	9.736849e+001	-2.000000e+002	0.000000e+000	-2.000000e+002	0.000000e+000	-2.000000e+002	0.000000e+000
2465071000	-4.225617e+000	1.908517e+001	-2.000000e+002	0.000000e+000	-2.000000e+002	0.000000e+000	-2.000000e+002	0.000000e+000
2507570500	-4.498059e+000	-6.137479e+001	-2.000000e+002	0.000000e+000	-2.000000e+002	0.000000e+000	-2.000000e+002	0.000000e+000
2550070000	-4.699070e+000	-1.453592e+002	-2.000000e+002	0.000000e+000	-2.000000e+002	0.000000e+000	-2.000000e+002	0.000000e+000
2592569500	-4.435906e+000	1.320923e+002	-2.000000e+002	0.000000e+000	-2.000000e+002	0.000000e+000	-2.000000e+002	0.000000e+000
2635069000	-4.199867e+000	5.423341e+001	-2.000000e+002	0.000000e+000	-2.000000e+002	0.000000e+000	-2.000000e+002	0.000000e+000
2677568500	-4.250132e+000	-2.366253e+001	-2.000000e+002	0.000000e+000	-2.000000e+002	0.000000e+000	-2.000000e+002	0.000000e+000
2720068000	-4.646202e+000	-1.075788e+002	-2.000000e+002	0.000000e+000	-2.000000e+002	0.000000e+000	-2.000000e+002	0.000000e+000
2762567500	-4.665109e+000	1.659103e+002	-2.000000e+002	0.000000e+000	-2.000000e+002	0.000000e+000	-2.000000e+002	0.000000e+000
2805067000	-4.384596e+000	8.593881e+001	-2.000000e+002	0.000000e+000	-2.000000e+002	0.000000e+000	-2.000000e+002	0.000000e+000
2847566500	-4.455849e+000	1.046232e+001	-2.000000e+002	0.000000e+000	-2.000000e+002	0.000000e+000	-2.000000e+002	0.000000e+000
2890066000	-5.147339e+000	-6.862985e+001	-2.000000e+002	0.000000e+000	-2.000000e+002	0.000000e+000	-2.000000e+002	0.000000e+000
2932565500	-5.604269e+000	-1.558952e+002	-2.000000e+002	0.000000e+000	-2.000000e+002	0.000000e+000	-2.000000e+002	0.000000e+000
2975065000	-5.403265e+000	1.195964e+002	-2.000000e+002	0.000000e+000	-2.000000e+002	0.000000e+000	-2.000000e+002	0.000000e+000
3017564500	-5.379267e+000	4.340814e+001	-2.000000e+002	0.000000e+000	-2.000000e+002	0.000000e+000	-2.000000e+002	0.000000e+000
3060064000	-6.235305e+000	-3.250642e+001	-2.000000e+002	0.000000e+000	-2.000000e+002	0.000000e+000	-2.000000e+002	0.000000e+000
3102563500	-7.490821e+000	-1.169304e+002	-2.000000e+002	0.000000e+000	-2.000000e+002	0.000000e+000	-2.000000e+002	0.000000e+000
3145063000	-7.734649e+000	1.567559e+002	-2.000000e+002	0.000000e+000	-2.000000e+002	0.000000e+000	-2.000000e+002	0.000000e+000
3187562500	-7.450023e+000	8.053252e+001	-2.000000e+002	0.000000e+000	-2.000000e+002	0.000000e+000	-2.000000e+002	0.000000e+000
3230062000	-7.893554e+000	1.026638e+001	-2.000000e+002	0.000000e+000	-2.000000e+002	0.000000e+000	-2.000000e+002	0.000000e+000
3272561500	-9.156317e+000	-6.369446e+001	-2.000000e+002	0.000000e+000	-2.000000e+002	0.000000e+000	-2.000000e+002	0.000000e+000
3315061000	-9.802045e+000	-1.467620e+002	-2.000000e+002	0.000000e+000	-2.000000e+002	0.000000e+000	-2.000000e+002	0.000000e+000
3357560500	-9.023015e+000	1.321643e+002	-2.000000e+002	0.000000e+000	-2.000000e+002	0.000000e+000	-2.000000e+002	0.000000e+000
3400060000	-8.152452e+000	5.951482e+001	-2.000000e+002	0.000000e+000	-2.000000e+002	0.000000e+000	-2.000000e+002	0.000000e+000
3442559500	-8.006280e+000	-1.229702e+001	-2.000000e+002	0.000000e+000	-2.000000e+002	0.000000e+000	-2.000000e+002	0.000000e+000
3485059000	-8.240904e+000	-9.166477e+001	-2.000000e+002	0.000000e+000	-2.000000e+002	0.000000e+000	-2.000000e+002	0.000000e+000
3527558500	-7.857228e+000	-1.776178e+002	-2.000000e+002	0.000000e+000	-2.000000e+002	0.000000e+000	-2.000000e+002	0.000000e+000
3570058000	-6.984223e+000	9.968260e+001	-2.000000e+002	0.000000e+000	-2.000000e+002	0.000000e+000	-2.000000e+002	0.000000e+000
3612557500	-6.447223e+000	2.229923e+001	-2.000000e+002	0.000000e+000	-2.000000e+002	0.000000e+000	-2.000000e+002	0.000000e+000
3655057000	-6.334387e+000	-5.604479e+001	-2.000000e+002	0.000000e+000	-2.000000e+002	0.000000e+000	-2.000000e+002	0.000000e+000
3697556500	-6.360408e+000	-1.403161e+002	-2.000000e+002	0.000000e+000	-2.000000e+002	0.000000e+000	-2.000000e+002	0.000000e+000
3740056000	-6.125330e+000	1.337477e+002	-2.000000e+002	0.000000e+000	-2.000000e+002	0.000000e+000	-2.000000e+002	0.000000e+000
3782555500	-5.725555e+000	5.219400e+001	-2.000000e+002	0.000000e+000	-2.000000e+002	0.000000e+000	-2.000000e+002	0.000000e+000
3825055000	-5.571845e+000	-2.707758e+001	-2.000000e+002	0.000000e+000	-2.000000e+002	0.000000e+000	-2.000000e+002	0.000000e+000
3867554500	-5.760982e+000	-1.101704e+002	-2.000000e+002	0.000000e+000	-2.000000e+002	0.000000e+000	-2.000000e+002	0.000000e+000
3910054000	-5.836022e+000	1.626271e+002	-2.000000e+002	0.000000e+000	-2.000000e+002	0.000000e+000	-2.000000e+002	0.000000e+000
3952553500	-5.420959e+000	7.985867e+001	-2.000000e+002	0.000000e+000	-2.000000e+002	0.000000e+000	-2.000000e+002	0.000000e+000
3995053000	-5.147589e+000	2.791367e+000	-2.000000e+002	0.000000e+000	-2.000000e+002	0.000000e+000	-2.000000e+002	0.000000e+000
4037552500	-5.513998e+000	-7.750790e+001	-2.000000e+002	0.000000e+000	-2.000000e+002	0.000000e+000	-2.000000e+002	0.000000e+000
4080052000	-6.090211e+000	-1.663541e+002	-2.000000e+002	0.000000e+000	-2.000000e+002	0.000000e+000	-2.000000e+002	0.000000e+000
4122551500	-5.706269e+000	1.058508e+002	-2.000000e+002	0.000000e+000	-2.000000e+002	0.000000e+000	-2.000000e+002	0.000000e+000
4165051000	-5.141294e+000	2.785883e+001	-2.000000e+002	0.000000e+000	-2.000000e+002	0.000000e+000	-2.000000e+002	0.000000e+000
4207550500	-5.435764e+000	-4.927180e+001	-2.000000e+002	0.000000e+000	-2.000000e+002	0.000000e+000	-2.000000e+002	0.000000e+000
4250050000	-6.420885e+000	-1.358641e+002	-2.000000e+002	0.000000e+000	-2.000000e+002	0.000000e+000	-2.000000e+002	0.000000e+000
4292549500	-6.227451e+000	1.328047e+002	-2.000000e+002	0.000000e+000	-2.000000e+002	0.000000e+000	-2.000000e+002	0.000000e+000
4335049000	-5.444054e+000	5.277519e+001	-2.000000e+002	0.000000e+000	-2.000000e+002	0.000000e+000	-2.000000e+002	0.000000e+000
4377548500	-5.532238e+000	-2.205240e+001	-2.000000e+002	0.000000e+000	-2.000000e+002	0.000000e+000	-2.000000e+002	0.000000e+000
4420048000	-6.592994e+000	-1.056301e+002	-2.000000e+002	0.000000e+000	-2.000000e+002	0.000000e+000	-2.000000e+002	0.000000e+000
4462547500	-6.884291e+000	1.612573e+002	-2.000000e+002	0.000000e+000	-2.000000e+002	0.000000e+000	-2.000000e+002	0.000000e+000
4505047000	-6.052258e+000	7.772040e+001	-2.000000e+002	0.000000e+000	-2.000000e+002	0.000000e+000	-2.000000e+002	0.000000e+000
4547546500	-6.062881e+000	2.431676e+000	-2.000000e+002	0.000000e+000	-2.000000e+002	0.000000e+000	-2.000000e+002	0.000000e+000
4590046000	-7.438399e+000	-7.875097e+001	-2.000000e+002	0.000000e+000	-2.000000e+002	0.000000e+000	-2.000000e+002	0.000000e+000
4632545500	-8.215507e+000	-1.723852e+002	-2.000000e+002	0.000000e+000	-2.000000e+002	0.000000e+000	-2.000000e+002	0.000000e+000
4675045000	-7.521782e+000	1.014485e+002	-2.000000e+002	0.000000e+000	-2.000000e+002	0.000000e+000	-2.000000e+002	0.000000e+000
4717544500	-7.655453e+000	2.760987e+001	-2.000000e+002	0.000000e+000	-2.000000e+002	0.000000e+000	-2.000000e+002	0.000000e+000
4760044000	-9.248300e+000	-4.777329e+001	-2.000000e+002	0.000000e+000	-2.000000e+002	0.000000e+000	-2.000000e+002	0.000000e+000
4802543500	-1.110347e+001	-1.385129e+002	-2.000000e+002	0.000000e+000	-2.000000e+002	0.000000e+000	-2.000000e+002	0.000000e+000
4845043000	-1.074575e+001	1.331902e+002	-2.000000e+002	0.000000e+000	-2.000000e+002	0.000000e+000	-2.000000e+002	0.000000e+000
4887542500	-1.031719e+001	5.863486e+001	-2.000000e+002	0.000000e+000	-2.000000e+002	0.000000e+000	-2.000000e+002	0.000000e+000
4930042000	-1.163554e+001	-1.308864e+001	-2.000000e+002	0.000000e+000	-2.000000e+002	0.000000e+000	-2.000000e+002	0.000000e+000
4972541500	-1.397803e+001	-9.546895e+001	-2.000000e+002	0.000000e+000	-2.000000e+002	0.000000e+000	-2.000000e+002	0.000000e+000
5015041000	-1.433299e+001	1.722102e+002	-2.000000e+002	0.000000e+000	-2.000000e+002	0.000000e+000	-2.000000e+002	0.000000e+000
5057540500	-1.374327e+001	9.475969e+001	-2.000000e+002	0.000000e+000	-2.000000e+002	0.000000e+000	-2.000000e+002	0.000000e+000
5100040000	-1.407673e+001	2.692346e+001	-2.000000e+002	0.000000e+000	-2.000000e+002	0.000000e+000	-2.000000e+002	0.000000e+000
5142539500	-1.579303e+001	-4.691471e+001	-2.000000e+002	0.000000e+000	-2.000000e+002	0.000000e+000	-2.000000e+002	0.000000e+000
5185039000	-1.840460e+001	-1.330282e+002	-2.000000e+002	0.000000e+000	-2.000000e+002	0.000000e+000	-2.000000e+002	0.000000e+000
5227538500	-1.948756e+001	1.399737e+002	-2.000000e+002	0.000000e+000	-2.000000e+002	0.000000e+000	-2.000000e+002	0.000000e+000
5270038000	-1.955143e+001	6.582114e+001	-2.000000e+002	0.000000e+000	-2.000000e+002	0.000000e+000	-2.000000e+002	0.000000e+000
5312537500	-2.125307e+001	6.404658e+000	-2.000000e+002	0.000000e+000	-2.000000e+002	0.000000e+000	-2.000000e+002	0.000000e+000
5355037000	-2.281398e+001	-4.341791e+001	-2.000000e+002	0.000000e+000	-2.000000e+002	0.000000e+000	-2.000000e+002	0.000000e+000
5397536500	-2.554424e+001	-9.582183e+001	-2.000000e+002	0.000000e+000	-2.000000e+002	0.000000e+000	-2.000000e+002	0.000000e+000
5440036000	-2.510619e+001	-1.728651e+002	-2.000000e+002	0.000000e+000	-2.000000e+002	0.000000e+000	-2.000000e+002	0.000000e+000
5482535500	-2.026299e+001	1.057144e+002	-2.000000e+002	0.000000e+000	-2.000000e+002	0.000000e+000	-2.000000e+002	0.000000e+000
5525035000	-1.601537e+001	3.722457e+001	-2.000000e+002	0.000000e+000	-2.000000e+002	0.000000e+000	-2.000000e+002	0.000000e+000
5567534500	-1.444388e+001	-2.709307e+001	-2.000000e+002	0.000000e+000	-2.000000e+002	0.000000e+000	-2.000000e+002	0.000000e+000
5610034000	-1.441499e+001	-1.018905e+002	-2.000000e+002	0.000000e+000	-2.000000e+002	0.000000e+000	-2.000000e+002	0.000000e+000
5652533500	-1.400941e+001	1.604688e+002	-2.000000e+002	0.000000e+000	-2.000000e+002	0.000000e+000	-2.000000e+002	0.000000e+000
5695033000	-1.109091e+001	7.281857e+001	-2.000000e+002	0.000000e+000	-2.000000e+002	0.000000e+000	-2.000000e+002	0.000000e+000
5737532500	-9.254576e+000	8.084573e-002	-2.000000e+002	0.000000e+000	-2.000000e+002	0.000000e+000	-2.000000e+002	0.000000e+000
5780032000	-9.376106e+000	-7.506405e+001	-2.000000e+002	0.000000e+000	-2.000000e+002	0.000000e+000	-2.000000e+002	0.000000e+000
5822531500	-1.017187e+001	-1.664800e+002	-2.000000e+002	0.000000e+000	-2.000000e+002	0.000000e+000	-2.000000e+002	0.000000e+000
5865031000	-8.827995e+000	1.010158e+002	-2.000000e+002	0.000000e+000	-2.000000e+002	0.000000e+000	-2.000000e+002	0.000000e+000
5907530500	-7.330444e+000	2.395328e+001	-2.000000e+002	0.000000e+000	-2.000000e+002	0.000000e+000	-2.000000e+002	0.000000e+000
5950030000	-7.476881e+000	-5.018285e+001	-2.000000e+002	0.000000e+000	-2.000000e+002	0.000000e+000	-2.000000e+002	0.000000e+000
5992529500	-8.482349e+000	-1.360356e+002	-2.000000e+002	0.000000e+000	-2.000000e+002	0.000000e+000	-2.000000e+002	0.000000e+000
6035029000	-7.776122e+000	1.311040e+002	-2.000000e+002	0.000000e+000	-2.000000e+002	0.000000e+000	-2.000000e+002	0.000000e+000
6077528500	-6.581139e+000	5.222508e+001	-2.000000e+002	0.000000e+000	-2.000000e+002	0.000000e+000	-2.000000e+002	0.000000e+000
6120028000	-6.639396e+000	-2.095183e+001	-2.000000e+002	0.000000e+000	-2.000000e+002	0.000000e+000	-2.000000e+002	0.000000e+000
6162527500	-7.667049e+000	-1.032803e+002	-2.000000e+002	0.000000e+000	-2.000000e+002	0.000000e+000	-2.000000e+002	0.000000e+000
6205027000	-7.539911e+000	1.653851e+002	-2.000000e+002	0.000000e+000	-2.000000e+002	0.000000e+000	-2.000000e+002	0.000000e+000
6247526500	-6.558987e+000	8.385139e+001	-2.000000e+002	0.000000e+000	-2.000000e+002	0.000000e+000	-2.000000e+002	0.000000e+000
6290026000	-6.660002e+000	1.102711e+001	-2.000000e+002	0.000000e+000	-2.000000e+002	0.000000e+000	-2.000000e+002	0.000000e+000
6332525500	-7.717710e+000	-6.922015e+001	-2.000000e+002	0.000000e+000	-2.000000e+002	0.000000e+000	-2.000000e+002	0.000000e+000
6375025000	-8.049129e+000	-1.619042e+002	-2.000000e+002	0.000000e+000	-2.000000e+002	0.000000e+000	-2.000000e+002	0.000000e+000
6417524500	-7.037993e+000	1.130713e+002	-2.000000e+002	0.000000e+000	-2.000000e+002	0.000000e+000	-2.000000e+002	0.000000e+000
6460024000	-6.794535e+000	4.008360e+001	-2.000000e+002	0.000000e+000	-2.000000e+002	0.000000e+000	-2.000000e+002	0.000000e+000
6502523500	-7.624688e+000	-3.523046e+001	-2.000000e+002	0.000000e+000	-2.000000e+002	0.000000e+000	-2.000000e+002	0.000000e+000
6545023000	-8.474215e+000	-1.238542e+002	-2.000000e+002	0.000000e+000	-2.000000e+002	0.000000e+000	-2.000000e+002	0.000000e+000
